Circuit: ** DC circuit - 3 **

Direct Newton iteration for .op point skipped.
Gmin stepping method for .op point skipped.
Starting source stepping with srcstepmethod=0
Source Step = 3.0303%
Source Step = 12.1212%
Source Step = 19.697%
Source Step = 27.2727%
Source Step = 34.8485%
Source Step = 42.4242%
vernier = 0.375
Source Step = 52.6515%
Source Step = 64.0152%
Source Step = 75.3788%
Source Step = 86.7424%
Source Step = 98.1061%
Source stepping succeeded in finding the operating point.

Semiconductor Device Operating Points:
                        --- Diodes ---
Name:    d:q9:bd     d:q4:bd    d:u9:sub     d:u9:4      d:u9:3
Model:   q9:dbd      q4:dbd      u9:dm2      u9:dm2      u9:dm2
Id:     -4.37e-11   -4.37e-11   -1.53e-11   -6.78e-13   -1.10e-11
Vd:     -2.00e-03   -2.00e-03   -1.53e+01   -6.77e-01   -1.10e+01
Req:     4.75e+07    4.75e+07    1.00e+12    1.00e+12    1.00e+12
CAP:     5.23e-10    5.23e-10    0.00e+00    0.00e+00    0.00e+00

Name:    d:u9:2      d:u9:1     d:u2:sub     d:u2:4      d:u2:3
Model:   u9:dm1      u9:dm1      u2:dm2      u2:dm2      u2:dm2
Id:     -1.21e-16    1.21e-16   -1.53e-11   -1.22e-11    6.39e-08
Vd:     -1.07e-04    1.07e-04   -1.53e+01   -1.22e+01    4.71e-01
Req:     8.86e+11    8.85e+11    1.00e+12    1.00e+12    4.05e+05
CAP:     0.00e+00    0.00e+00    0.00e+00    0.00e+00    0.00e+00

Name:    d:u2:2      d:u2:1      d:q3:bd    d:u4:sub     d:u4:4
Model:   u2:dm1      u2:dm1      q3:dbd      u4:dm2      u4:dm2
Id:     -4.66e-16    4.67e-16   -5.88e-10   -1.53e-11   -2.77e-12
Vd:     -4.14e-04    4.14e-04   -7.01e-01   -1.53e+01   -2.77e+00
Req:     8.87e+11    8.84e+11    1.00e+12    1.00e+12    1.00e+12
CAP:     0.00e+00    0.00e+00    3.66e-10    0.00e+00    0.00e+00

Name:    d:u4:3      d:u4:2      d:u4:1     d:q11:bd     d:q5:bd
Model:   u4:dm2      u4:dm1      u4:dm1      q11:dbd     q5:dbd
Id:     -8.91e-12    1.90e-16   -1.90e-16    0.00e+00    0.00e+00
Vd:     -8.91e+00    1.68e-04   -1.68e-04   -1.13e+01   -4.93e-04
Req:     1.00e+12    8.85e+11    8.86e+11    1.00e+12    6.48e+10
CAP:     0.00e+00    0.00e+00    0.00e+00    3.29e-11    4.38e-11

Name:    d:q6:4      d:q6:3      d:q6:2      d:q6:1      d:q7:bd
Model:   q6:md3      q6:md2      q6:md1       q6:md      q7:dbd
Id:      4.75e+00    4.75e+00    2.54e-13   -3.46e-12    0.00e+00
Vd:      2.54e-01    2.54e-01    2.54e-01   -4.99e-04   -6.16e+00
Req:     2.18e-03    2.18e-03    1.00e+12    1.45e+08    1.00e+12
CAP:     0.00e+00    0.00e+00    1.08e-10    3.41e-11    1.41e-11

Name:    d:q8:4      d:q8:3      d:q8:2      d:q8:1
Model:   q8:md3      q8:md2      q8:md1       q8:md
Id:     -1.10e-10   -1.10e-10   -1.00e-11   -2.81e-10
Vd:     -1.00e+01   -1.00e+01   -1.00e+01   -1.00e+01
Req:     1.00e+12    1.00e+12    1.00e+12    1.00e+12
CAP:     0.00e+00    0.00e+00    6.34e-12    1.22e-11

                        --- Bipolar Transistors ---
Name:     q:u9:2      q:u9:1      q:u2:2      q:u2:1           qq2
Model:    u9:qm2      u9:qm1      u2:qm2      u2:qm1    qbd135__bjt_npn__1
Ib:       6.79e-08    7.09e-08    6.97e-08    7.26e-08       5.44e-05
Ic:       7.44e-06    7.44e-06    7.64e-06    7.61e-06       6.71e-03
Vbe:      5.92e-01    5.94e-01    5.92e-01    5.94e-01       6.58e-01
Vbc:     -1.20e+01   -1.20e+01   -6.95e+00   -6.95e+00      -1.34e+00
Vce:      1.25e+01    1.25e+01    7.55e+00    7.55e+00       2.00e+00
BetaDC:   1.10e+02    1.05e+02    1.10e+02    1.05e+02       1.23e+02
Gm:       2.88e-04    2.88e-04    2.95e-04    2.94e-04       2.61e-01
Rpi:      3.81e+05    3.65e+05    3.71e+05    3.56e+05       4.71e+02
Rx:       0.00e+00    0.00e+00    0.00e+00    0.00e+00       5.00e-01
Ro:       0.00e+00    0.00e+00    0.00e+00    0.00e+00       3.30e+04
Cbe:      0.00e+00    0.00e+00    0.00e+00    0.00e+00       4.44e-10
Cbc:      0.00e+00    0.00e+00    0.00e+00    0.00e+00       1.79e-11
Cjs:      0.00e+00    0.00e+00    0.00e+00    0.00e+00       0.00e+00
BetaAC:   1.09e+02    1.05e+02    1.09e+02    1.05e+02       1.23e+02
Cbx:      0.00e+00    0.00e+00    0.00e+00    0.00e+00       0.00e+00
Ft:       0.00e+00    0.00e+00    0.00e+00    0.00e+00       8.98e+07

Name:     q:u4:2      q:u4:1           qdut
Model:    u4:qm2      u4:qm1    2n3415__bjt_npn__1
Ib:       6.80e-08    7.10e-08       1.87e-05
Ic:       7.45e-06    7.45e-06       6.16e-03
Vbe:      5.92e-01    5.94e-01       6.97e-01
Vbc:     -1.16e+01   -1.16e+01      -3.15e+00
Vce:      1.22e+01    1.22e+01       3.85e+00
BetaDC:   1.10e+02    1.05e+02       3.29e+02
Gm:       2.88e-04    2.88e-04       2.27e-01
Rpi:      3.80e+05    3.64e+05       1.49e+03
Rx:       0.00e+00    0.00e+00       1.00e+01
Ro:       0.00e+00    0.00e+00       6.58e+03
Cbe:      0.00e+00    0.00e+00       1.03e-10
Cbc:      0.00e+00    0.00e+00       3.41e-12
Cjs:      0.00e+00    0.00e+00       0.00e+00
BetaAC:   1.09e+02    1.05e+02       3.39e+02
Cbx:      0.00e+00    0.00e+00       0.00e+00
Ft:       0.00e+00    0.00e+00       3.39e+08

                        --- MOSFET Transistors ---
Name:        m:q6:1      m:q8:1      m:q9:1      m:q4:1      m:q3:1
Model:        q6:mm       q8:mm      q9:mint     q4:mint     q3:mint
Id:          1.00e-04    2.00e-11   -3.09e-03   -3.09e-03   -1.40e-12
Vgs:         5.00e+00   -3.01e-13   -8.17e-01   -8.17e-01    5.78e-01
Vds:         3.88e-04    1.00e+01   -1.88e-03   -1.88e-03   -7.01e-01
Vbs:         0.00e+00    0.00e+00    0.00e+00    0.00e+00    0.00e+00
Vth:         2.24e+00    2.24e+00   -6.36e-01   -6.36e-01   -6.35e-01
Vdsat:       2.76e+00    0.00e+00   -2.06e-01   -2.06e-01   -2.59e-02
Gm:          3.62e-05    0.00e+00    1.50e-02    1.50e-02    4.43e-22
Gds:         2.58e-01    0.00e+00    1.64e+00    1.64e+00    1.04e-24
Gmb:         0.00e+00    0.00e+00   -0.00e+00   -0.00e+00    0.00e+00
Cbd:         0.00e+00    0.00e+00    0.00e+00    0.00e+00    0.00e+00
Cbs:         0.00e+00    0.00e+00    0.00e+00    0.00e+00    0.00e+00
Cgsov:       1.79e-11    1.79e-11    0.00e+00    0.00e+00    0.00e+00
Cgdov:       1.07e-15    1.07e-15    0.00e+00    0.00e+00    0.00e+00
Cgbov:       0.00e+00    0.00e+00    0.00e+00    0.00e+00    0.00e+00
Cgs:         0.00e+00    0.00e+00    1.73e-12    1.73e-12    2.30e-12
Cgd:         0.00e+00    0.00e+00    1.72e-12    1.72e-12    0.00e+00
Cgb:         0.00e+00    0.00e+00    0.00e+00    0.00e+00    0.00e+00

Name:        m:q11:1     m:q5:1      m:q7:1
Model:      q11:mint     q5:mint     q7:mint
Id:          5.48e-05   -6.16e-03   -5.28e-06
Vgs:         5.78e-01   -1.00e+01   -3.67e-05
Vds:         1.13e+01   -1.04e-04   -6.16e+00
Vbs:         0.00e+00    0.00e+00    0.00e+00
Vth:         8.66e-01   -1.27e+00   -1.27e+00
Vdsat:       4.10e-02   -5.03e+00   -1.35e-01
Gm:          1.32e-03    6.94e-04    3.87e-05
Gds:         7.89e-07    5.90e+01    1.01e-08
Gmb:         0.00e+00   -0.00e+00    0.00e+00
Cbd:         0.00e+00    0.00e+00    0.00e+00
Cbs:         0.00e+00    0.00e+00    0.00e+00
Cgsov:       0.00e+00    0.00e+00    0.00e+00
Cgdov:       0.00e+00    0.00e+00    0.00e+00
Cgbov:       0.00e+00    0.00e+00    0.00e+00
Cgs:         9.73e-14    1.73e-12    2.30e-12
Cgd:         0.00e+00    1.73e-12    0.00e+00
Cgb:         1.65e-12    0.00e+00    0.00e+00



Date: Wed Mar 29 10:52:21 2023
Total elapsed time: 0.285 seconds.

tnom = 27
temp = 27
method = trap
totiter = 620
traniter = 0
tranpoints = 0
accept = 0
rejected = 0
matrix size = 227
fillins = 259
solver = Normal

