Circuit: ** DC circuit - 3 **

Direct Newton iteration for .op point skipped.
Gmin stepping method for .op point skipped.
Starting source stepping with srcstepmethod=0
Source Step = 3.0303%
vernier = 0.25
Source Step = 7.57576%
Source Step = 15.1515%
Source Step = 22.7273%
Source Step = 30.303%
vernier = 0.0625
Source Step = 31.4394%
Source Step = 33.3333%
Source Step = 35.2273%
Source Step = 37.1212%
Source Step = 39.0152%
vernier = 0.09375
Source Step = 41.7614%
Source Step = 44.6023%
Source Step = 47.4432%
Source Step = 50.2841%
Source Step = 53.125%
vernier = 0.140625
Source Step = 57.1023%
Source Step = 61.3636%
Source Step = 65.625%
Source Step = 69.8864%
Source Step = 74.1477%
vernier = 0.210938
Source Step = 79.9006%
Source Step = 86.2926%
Source Step = 92.6847%
Source Step = 99.0767%
Source stepping succeeded in finding the operating point.

Semiconductor Device Operating Points:
                        --- Diodes ---
Name:    d:q9:bd     d:q4:bd    d:u9:sub     d:u9:4      d:u9:3
Model:   q9:dbd      q4:dbd      u9:dm2      u9:dm2      u9:dm2
Id:     -5.89e-10   -5.89e-10   -1.53e-11   -1.25e-11    3.04e-02
Vd:     -1.80e+00   -1.80e+00   -1.53e+01   -1.25e+01    8.09e-01
Req:     1.00e+12    1.00e+12    1.00e+12    1.00e+12    8.51e-01
CAP:     2.80e-10    2.80e-10    0.00e+00    0.00e+00    0.00e+00

Name:    d:u9:2      d:u9:1     d:u2:sub     d:u2:4      d:u2:3
Model:   u9:dm1      u9:dm1      u2:dm2      u2:dm2      u2:dm2
Id:     -1.00e-12    2.13e+02   -1.53e-11   -4.06e-12   -7.63e-12
Vd:     -1.00e+00    1.00e+00   -1.53e+01   -4.06e+00   -7.63e+00
Req:     1.00e+12    1.21e-04    1.00e+12    1.00e+12    1.00e+12
CAP:     0.00e+00    0.00e+00    0.00e+00    0.00e+00    0.00e+00

Name:    d:u2:2      d:u2:1      d:q3:bd    d:u4:sub     d:u4:4
Model:   u2:dm1      u2:dm1      q3:dbd      u4:dm2      u4:dm2
Id:     -2.28e-15    2.30e-15   -9.71e-11   -1.53e-11   -6.24e-13
Vd:     -2.03e-03    2.03e-03   -4.67e-03   -1.53e+01   -6.23e-01
Req:     8.93e+11    8.78e+11    5.27e+07    1.00e+12    1.00e+12
CAP:     0.00e+00    0.00e+00    5.22e-10    0.00e+00    0.00e+00

Name:    d:u4:3      d:u4:2      d:u4:1     d:q11:bd     d:q5:bd
Model:   u4:dm2      u4:dm1      u4:dm1      q11:dbd     q5:dbd
Id:     -1.11e-11   -1.29e-16    1.29e-16   -3.99e-11    0.00e+00
Vd:     -1.11e+01   -1.14e-04    1.14e-04   -1.20e+01   -8.85e-02
Req:     1.00e+12    8.86e+11    8.85e+11    1.00e+12    6.75e+11
CAP:     0.00e+00    0.00e+00    0.00e+00    3.19e-11    4.12e-11

Name:    d:q6:4      d:q6:3      d:q6:2      d:q6:1      d:q7:bd
Model:   q6:md3      q6:md2      q6:md1       q6:md      q7:dbd
Id:     -1.02e-10   -1.02e-10   -1.90e-12   -2.73e-10    0.00e+00
Vd:     -1.90e+00   -1.90e+00   -1.90e+00   -1.90e+00   -2.35e-03
Req:     1.00e+12    1.00e+12    1.00e+12    1.00e+12    6.93e+10
CAP:     0.00e+00    0.00e+00    2.30e-11    2.51e-11    4.37e-11

Name:    d:q8:4      d:q8:3      d:q8:2      d:q8:1
Model:   q8:md3      q8:md2      q8:md1       q8:md
Id:      4.75e+00    4.75e+00    2.54e-13   -6.61e-13
Vd:      2.54e-01    2.54e-01    2.54e-01   -9.47e-05
Req:     2.18e-03    2.18e-03    1.00e+12    1.43e+08
CAP:     0.00e+00    0.00e+00    1.08e-10    3.41e-11

                        --- Bipolar Transistors ---
Name:     q:u9:2      q:u9:1      q:u2:2      q:u2:1           qq2
Model:    u9:qm2      u9:qm1      u2:qm2      u2:qm1    qbd135__bjt_npn__1
Ib:       1.39e-07   -1.28e-11    6.83e-08    7.12e-08       7.11e-05
Ic:       1.52e-05    1.02e-11    7.47e-06    7.47e-06       9.06e-03
Vbe:      6.10e-01   -2.55e+00    5.92e-01    5.94e-01       6.65e-01
Vbc:     -6.91e+00   -1.02e+01   -1.10e+01   -1.10e+01      -9.43e+00
Vce:      7.52e+00    7.65e+00    1.16e+01    1.16e+01       1.01e+01
BetaDC:   1.10e+02   -8.00e-01    1.10e+02    1.05e+02       1.28e+02
Gm:       5.90e-04    4.26e-57    2.89e-04    2.89e-04       3.52e-01
Rpi:      1.86e+05    1.00e+12    3.79e+05    3.63e+05       3.60e+02
Rx:       0.00e+00    0.00e+00    0.00e+00    0.00e+00       5.00e-01
Ro:       0.00e+00    0.00e+00    0.00e+00    0.00e+00       2.53e+04
Cbe:      0.00e+00    0.00e+00    0.00e+00    0.00e+00       5.13e-10
Cbc:      0.00e+00    0.00e+00    0.00e+00    0.00e+00       8.65e-12
Cjs:      0.00e+00    0.00e+00    0.00e+00    0.00e+00       0.00e+00
BetaAC:   1.09e+02    4.26e-45    1.09e+02    1.05e+02       1.27e+02
Cbx:      0.00e+00    0.00e+00    0.00e+00    0.00e+00       0.00e+00
Ft:       0.00e+00    0.00e+00    0.00e+00    0.00e+00       1.07e+08

Name:     q:u4:2      q:u4:1           qdut
Model:    u4:qm2      u4:qm1    2n3906__bjt_pnp__1
Ib:       6.79e-08    7.09e-08      -9.01e-03
Ic:       7.44e-06    7.44e-06      -4.90e-06
Vbe:      5.92e-01    5.94e-01      -9.00e-01
Vbc:     -1.20e+01   -1.20e+01      -8.93e-01
Vce:      1.25e+01    1.25e+01      -7.01e-03
BetaDC:   1.10e+02    1.05e+02       5.44e-04
Gm:       2.88e-04    2.88e-04       2.54e-01
Rpi:      3.81e+05    3.65e+05       8.23e+01
Rx:       0.00e+00    0.00e+00       1.00e+01
Ro:       0.00e+00    0.00e+00       9.23e-01
Cbe:      0.00e+00    0.00e+00       2.75e-10
Cbc:      0.00e+00    0.00e+00       5.60e-08
Cjs:      0.00e+00    0.00e+00       0.00e+00
BetaAC:   1.09e+02    1.05e+02       2.09e+01
Cbx:      0.00e+00    0.00e+00       0.00e+00
Ft:       0.00e+00    0.00e+00       7.17e+05

                        --- MOSFET Transistors ---
Name:        m:q6:1      m:q8:1      m:q9:1      m:q4:1      m:q3:1
Model:        q6:mm       q8:mm      q9:mint     q4:mint     q3:mint
Id:          3.80e-12    1.90e-05   -3.60e-12   -3.60e-12   -9.01e-03
Vgs:        -5.72e-14    5.00e+00    9.20e+00    9.20e+00   -8.73e-01
Vds:         1.90e+00    7.37e-05   -1.80e+00   -1.80e+00   -4.32e-03
Vbs:         0.00e+00    0.00e+00    0.00e+00    0.00e+00    0.00e+00
Vth:         2.24e+00    2.24e+00   -6.32e-01   -6.32e-01   -6.36e-01
Vdsat:       0.00e+00    2.76e+00   -2.59e-02   -2.59e-02   -2.63e-01
Gm:          0.00e+00    6.87e-06      NaN         NaN       3.46e-02
Gds:         0.00e+00    2.58e-01      NaN         NaN       2.07e+00
Gmb:         0.00e+00    0.00e+00    0.00e+00    0.00e+00   -0.00e+00
Cbd:         0.00e+00    0.00e+00    0.00e+00    0.00e+00    0.00e+00
Cbs:         0.00e+00    0.00e+00    0.00e+00    0.00e+00    0.00e+00
Cgsov:       1.79e-11    1.79e-11    0.00e+00    0.00e+00    0.00e+00
Cgdov:       1.07e-15    1.07e-15    0.00e+00    0.00e+00    0.00e+00
Cgbov:       0.00e+00    0.00e+00    0.00e+00    0.00e+00    0.00e+00
Cgs:         0.00e+00    0.00e+00    0.00e+00    0.00e+00    1.74e-12
Cgd:         0.00e+00    0.00e+00    0.00e+00    0.00e+00    1.72e-12
Cgb:         0.00e+00    0.00e+00    3.45e-12    3.45e-12    0.00e+00

Name:        m:q11:1     m:q5:1      m:q7:1
Model:      q11:mint     q5:mint     q7:mint
Id:          2.40e-11   -4.65e-06   -9.01e-03
Vgs:        -8.73e-01   -2.87e-05   -1.90e+00
Vds:         1.20e+01   -8.85e-02   -1.78e-03
Vbs:         0.00e+00    0.00e+00    0.00e+00
Vth:         8.66e-01   -1.27e+00   -1.27e+00
Vdsat:       4.10e-02   -1.35e-01   -7.26e-01
Gm:          8.27e-19    3.41e-05    1.19e-02
Gds:         4.94e-22    2.68e-05    5.05e+00
Gmb:         0.00e+00    0.00e+00   -0.00e+00
Cbd:         0.00e+00    0.00e+00    0.00e+00
Cbs:         0.00e+00    0.00e+00    0.00e+00
Cgsov:       0.00e+00    0.00e+00    0.00e+00
Cgdov:       0.00e+00    0.00e+00    0.00e+00
Cgbov:       0.00e+00    0.00e+00    0.00e+00
Cgs:         0.00e+00    2.15e-12    1.73e-12
Cgd:         0.00e+00    1.03e-12    1.73e-12
Cgb:         3.45e-12    0.00e+00    0.00e+00



Date: Wed Mar 29 23:48:30 2023
Total elapsed time: 0.284 seconds.

tnom = 27
temp = 27
method = trap
totiter = 1109
traniter = 0
tranpoints = 0
accept = 0
rejected = 0
matrix size = 227
fillins = 338
solver = Normal

